! MODEL: LAT-3+, Mini-Circuits Lab 
! TESTED ON : 3/6/2006
! INPUT POWER = 0 dBm @Temperature=+25degC
# mhz s db r 50

0.1	-47.71	118.92	-2.95	-0.12	-2.95	-0.08	-59.97	70.02
0.2	-50.62	79.14	-2.95	-0.1	-2.97	-0.11	-56.96	39.65
0.3	-52.32	58.2	-2.96	-0.1	-2.97	-0.15	-55.47	20.98
0.4	-52.59	40.92	-2.95	-0.17	-2.97	-0.1	-55.62	13.8
0.5	-53.31	31.4	-2.96	-0.05	-2.97	-0.08	-55.72	11.17
0.6	-53.67	27.03	-2.96	-0.03	-2.97	-0.08	-55.46	8.41
0.7	-54.12	23.57	-2.96	-0.05	-2.97	-0.11	-55.66	3.96
0.8	-53.97	18.59	-2.96	-0.16	-2.96	-0.07	-55.89	2.16
0.9	-54.33	16.8	-2.97	-0.01	-2.98	-0.16	-56.43	2.55
1	-54.37	15.21	-2.97	-0.09	-2.97	-0.08	-56.64	1.24
1.1	-54.46	13.78	-2.96	-0.07	-2.97	-0.03	-56.87	3.56
1.2	-54.49	12.22	-2.96	-0.1	-2.97	0	-56.92	1.43
1.3	-54.61	11.61	-2.98	0	-2.97	-0.11	-57.48	2.47
1.4	-54.83	11.33	-2.97	-0.04	-2.97	-0.12	-57.56	4.43
1.5	-54.59	10.12	-2.96	-0.15	-2.97	-0.08	-57.73	5.45
2	-55.09	11.96	-2.96	-0.14	-2.96	-0.19	-57.16	9.76
4	-54	14.97	-2.97	-0.34	-2.97	-0.2	-54.97	12.81
6	-53.01	15.79	-2.96	-0.36	-2.97	-0.34	-54.29	12.23
8	-52.98	12.4	-2.97	-0.43	-2.98	-0.37	-54.31	11.69
10	-52.87	12.62	-2.98	-0.55	-2.98	-0.64	-54.73	10.9
12	-52.6	12.92	-2.97	-0.65	-2.96	-0.68	-54.79	9.33
14	-52.31	13.42	-2.99	-0.8	-2.97	-0.69	-54.24	10.63
16	-52.1	13.15	-2.97	-0.97	-2.97	-0.91	-54.44	11.47
18	-52.09	14.27	-2.98	-1.03	-2.97	-1.04	-53.9	10.9
20	-51.9	14.2	-2.98	-1.14	-2.97	-1.09	-53.86	11.67
22	-51.9	13.49	-2.96	-1.23	-2.97	-1.23	-53.78	11.65
24	-51.47	13.34	-2.97	-1.32	-2.97	-1.29	-53.47	9.61
26	-51.38	14.65	-2.97	-1.45	-2.97	-1.45	-53.59	11.28
28	-51.35	13.34	-2.97	-1.6	-2.98	-1.48	-53.31	11.79
30	-51.14	13.17	-2.97	-1.61	-2.97	-1.64	-53.19	10.26
32	-51.34	14.04	-2.97	-1.72	-2.97	-1.8	-53.41	11.48
34	-50.83	13.46	-2.98	-1.95	-2.98	-1.83	-53.05	8.51
36	-51.05	12.77	-2.97	-1.97	-2.98	-2	-53.11	9.92
38	-50.86	12.83	-2.99	-2.12	-2.98	-2.09	-52.78	9.78
40	-50.71	13.58	-2.97	-2.19	-2.98	-2.16	-53.03	8.4
42	-50.7	13.18	-2.98	-2.32	-2.99	-2.31	-52.66	6.98
44	-50.48	12.16	-2.97	-2.42	-2.98	-2.41	-52.46	8.81
46	-50.47	13.07	-2.98	-2.52	-2.98	-2.52	-52.53	6.24
48	-50.24	11.24	-2.97	-2.61	-2.99	-2.65	-52.31	4.34
50	-50.18	12	-2.98	-2.73	-2.99	-2.66	-52.02	6.76
52	-50.02	11.75	-2.99	-2.87	-2.98	-2.88	-52.07	6.58
54	-49.74	12.27	-2.98	-2.98	-2.98	-2.99	-51.96	4.92
56	-49.62	12.35	-2.98	-3.05	-2.98	-3	-51.65	5.13
58	-49.49	11.54	-2.98	-3.19	-2.98	-3.09	-51.6	4.24
60	-49.42	11.74	-2.99	-3.21	-2.98	-3.27	-51.22	3.77
62	-49.19	10.03	-2.99	-3.39	-2.98	-3.43	-51.22	3.21
64	-49.01	10.62	-2.99	-3.56	-2.98	-3.5	-51.06	3.49
66	-49.11	10.07	-2.99	-3.56	-2.97	-3.56	-51.02	3.37
68	-48.84	9.25	-3	-3.71	-2.99	-3.71	-50.75	3.22
70	-48.53	10.69	-2.99	-3.8	-2.99	-3.79	-50.66	4.08
72	-48.52	9.7	-3	-3.98	-2.99	-3.91	-50.6	1.57
74	-48.49	10.12	-2.99	-4.01	-2.99	-4.01	-50.4	3.66
76	-48.63	10.1	-3	-4.15	-2.99	-4.13	-50.29	2.28
78	-48.31	10.49	-2.99	-4.3	-2.99	-4.22	-50.08	2.04
80	-48.28	10.18	-3	-4.43	-2.99	-4.36	-50.23	1.92
82	-48.1	10.54	-2.98	-4.53	-2.99	-4.45	-49.79	1.4
84	-47.99	9.72	-2.99	-4.57	-2.99	-4.6	-49.74	1.52
86	-47.84	9.86	-2.98	-4.67	-2.98	-4.72	-49.6	0.21
88	-47.85	10.32	-3	-4.81	-2.98	-4.76	-49.52	0.4
90	-47.86	10.17	-2.99	-4.88	-2.99	-4.91	-49.41	1.05
92	-47.88	11.6	-2.99	-5.04	-3.01	-5.07	-49.31	1.15
94	-47.83	12.11	-2.99	-5.1	-3	-5.17	-49.3	0.62
96	-47.74	11.46	-2.98	-5.24	-3	-5.27	-49.44	0.14
98	-47.76	12.18	-2.98	-5.34	-2.99	-5.38	-48.99	1.12
100	-47.66	12.18	-2.99	-5.47	-3	-5.45	-49.1	1.89
102	-47.68	12.01	-2.99	-5.56	-3	-5.56	-49.03	1.54
104	-47.69	12.7	-2.99	-5.68	-3	-5.67	-48.84	2.33
106	-47.62	14.1	-2.99	-5.8	-3.01	-5.77	-48.75	2.85
108	-47.5	12.35	-2.98	-5.92	-3	-5.92	-48.87	1.96
110	-47.52	13.19	-2.99	-5.99	-3.01	-5.95	-48.7	2.39
112	-47.58	13.42	-2.99	-6.14	-3	-6.1	-48.72	2.04
114	-47.55	13.34	-3	-6.22	-3	-6.24	-48.51	2.28
116	-47.59	13.47	-2.99	-6.26	-3.01	-6.34	-48.61	1.29
118	-47.65	13.6	-3	-6.43	-3.01	-6.45	-48.67	0.84
120	-47.52	13.16	-3	-6.55	-3	-6.54	-48.37	0.69
122	-47.86	12.89	-3	-6.69	-3.01	-6.69	-48.62	1.84
124	-47.63	12.27	-2.99	-6.74	-2.99	-6.74	-48.45	1.59
126	-47.65	13.16	-2.99	-6.95	-3	-6.91	-48.51	1.63
128	-47.76	12.35	-3	-6.98	-3	-6.94	-48.5	-0.28
130	-47.81	12.24	-3	-7.09	-3.01	-7.14	-48.4	0.69
132	-47.71	12.07	-3.01	-7.19	-3	-7.14	-48.36	0.34
134	-47.84	12.76	-3	-7.32	-3	-7.36	-48.29	-0.76
136	-47.8	11.19	-3	-7.46	-3	-7.42	-48.31	-0.6
138	-47.97	11.54	-3.01	-7.51	-3	-7.53	-48.3	-1.65
140	-47.89	10.5	-3.01	-7.59	-3	-7.6	-48.18	-1.8
142	-47.9	10.45	-3	-7.75	-3	-7.75	-48.29	-2.05
144	-47.85	9.61	-3.01	-7.82	-2.99	-7.82	-48.15	-4.02
146	-47.94	9.41	-3	-7.91	-3	-7.92	-48.28	-3.28
148	-47.9	9.4	-3.01	-8.04	-3	-8.06	-48.28	-4.59
150	-48.03	8.39	-3.01	-8.13	-3	-8.11	-48	-6.23
152	-47.85	7.67	-3.01	-8.21	-3	-8.23	-48.05	-5.89
154	-48	6.71	-3.01	-8.33	-3	-8.36	-47.9	-7.99
156	-47.9	6.36	-3	-8.46	-3.01	-8.45	-47.95	-8.61
158	-47.98	5.44	-3.01	-8.55	-3	-8.62	-47.95	-8.65
160	-47.77	4.51	-3.01	-8.71	-3	-8.71	-47.87	-8.88
162	-47.59	3.48	-3.02	-8.83	-2.99	-8.81	-47.72	-9.23
164	-47.64	2.58	-3.02	-8.91	-3.01	-8.9	-47.52	-11.37
166	-47.61	3.14	-3	-8.97	-3	-8.98	-47.65	-10.17
168	-47.56	2.64	-3.01	-9.08	-3	-9.11	-47.67	-11.12
170	-47.43	1.67	-3.01	-9.22	-3	-9.16	-47.52	-11.16
172	-47.18	0.73	-3.01	-9.27	-3	-9.3	-47.46	-11.61
174	-47.28	0.45	-3.01	-9.47	-3.01	-9.45	-47.25	-12.31
176	-47.3	0.76	-3.01	-9.5	-3.01	-9.54	-47.33	-12.7
178	-47.09	-1.1	-2.99	-9.73	-2.99	-9.74	-47.19	-13.95
180	-46.93	-0.35	-2.99	-9.78	-3.01	-9.79	-47.07	-12.73
182	-46.97	-1.15	-2.99	-9.82	-3	-9.93	-47.2	-14.27
184	-46.94	-1.32	-2.99	-10.02	-3	-10.03	-46.96	-14.3
186	-46.91	-2.26	-3	-10.13	-2.99	-10.16	-46.89	-14.07
188	-46.78	-1.68	-3	-10.24	-3	-10.22	-46.96	-14.52
190	-46.65	-1.86	-3	-10.4	-3	-10.32	-46.81	-15.17
192	-46.54	-1.9	-3.01	-10.46	-2.99	-10.42	-46.91	-14.12
194	-46.48	-1.44	-3	-10.57	-3	-10.55	-46.81	-15.02
196	-46.39	-1.88	-3	-10.68	-3	-10.64	-46.6	-14.25
198	-46.43	-2.35	-3	-10.74	-3	-10.75	-46.61	-14.76
200	-46.3	-2.05	-3	-10.84	-2.99	-10.81	-46.64	-15.23
202	-46.25	-1.66	-3	-10.95	-2.99	-10.94	-46.68	-14.98
204	-46.33	-1.49	-3	-11.06	-3	-11.12	-46.68	-13.84
206	-46.41	-0.92	-3.01	-11.13	-2.99	-11.26	-46.65	-14.56
208	-46.18	-1.7	-3	-11.21	-2.99	-11.28	-46.78	-14.41
210	-46.35	-1.69	-3	-11.44	-3	-11.41	-46.74	-13.71
212	-46.22	-1.22	-3	-11.46	-2.99	-11.53	-46.79	-13.62
214	-46.1	-0.58	-3.01	-11.57	-3	-11.62	-47.06	-13.82
216	-46.25	-0.36	-3	-11.7	-3	-11.73	-46.93	-12.91
218	-46.2	-1.44	-3	-11.78	-3	-11.83	-46.92	-12.5
220	-46.11	-1.09	-3.01	-11.89	-3	-11.98	-46.93	-11.58
222	-46.22	-0.99	-3	-12	-3	-12.04	-47	-13.1
224	-46.14	-1.32	-3.01	-12.11	-3	-12.16	-47.15	-13.33
226	-46.07	-0.84	-3.01	-12.24	-2.99	-12.25	-47.1	-13.39
228	-46.23	-0.4	-3.02	-12.39	-2.99	-12.33	-47.21	-13.61
230	-46.19	-0.05	-3.01	-12.41	-2.99	-12.5	-47.18	-12.38
232	-46.24	-0.45	-3	-12.59	-3	-12.54	-47.36	-13.03
234	-46.3	-1.02	-3	-12.75	-3	-12.67	-47.36	-14.12
236	-46.37	-0.79	-3.01	-12.77	-3	-12.78	-47.35	-14.91
238	-46.42	-1.07	-3.01	-12.84	-3	-12.9	-47.35	-15.08
240	-46.26	-1.44	-3.01	-12.96	-3	-13.06	-47.54	-14.82
242	-46.3	-1.83	-3.01	-13.12	-3	-13.15	-47.64	-15.75
244	-46.38	-2.63	-3.01	-13.23	-3.01	-13.22	-47.61	-16.61
246	-46.43	-2.14	-3.01	-13.31	-3	-13.32	-47.55	-16.43
248	-46.42	-3.43	-3.01	-13.41	-3	-13.43	-47.48	-16.99
250	-46.53	-2.66	-3.01	-13.54	-3	-13.54	-47.78	-17.58
252	-46.48	-3.4	-3	-13.61	-3	-13.67	-47.71	-17.89
254	-46.4	-4.27	-3.01	-13.72	-3	-13.7	-47.82	-18.71
256	-46.52	-5.01	-3.02	-13.86	-3	-13.89	-47.83	-19.94
258	-46.44	-5.65	-3.01	-13.92	-3.01	-14	-47.84	-20.21
260	-46.54	-6.7	-3.02	-14.08	-3	-14.09	-47.91	-20.87
262	-46.37	-6.97	-3.01	-14.13	-3	-14.16	-47.89	-22.21
264	-46.45	-8.23	-3.02	-14.24	-3.01	-14.29	-47.87	-24.16
266	-46.4	-8.79	-3.01	-14.36	-3	-14.37	-47.74	-24.64
268	-46.35	-9.28	-3.02	-14.49	-3	-14.46	-47.78	-24.5
270	-46.28	-9.75	-3.02	-14.63	-3	-14.59	-47.77	-26.38
272	-46.23	-10.9	-3.01	-14.72	-3.01	-14.75	-47.84	-25.71
274	-46.17	-11.22	-3.02	-14.81	-3	-14.85	-47.76	-27.15
276	-46.15	-11.3	-3.02	-14.88	-3.01	-14.98	-47.7	-27.1
278	-46.25	-12.06	-3.01	-15.03	-3	-15	-47.53	-27.95
280	-46.07	-11.75	-3.02	-15.15	-3.01	-15.18	-47.48	-30.02
282	-46.06	-12.46	-3.02	-15.2	-3	-15.22	-47.45	-29.41
284	-45.97	-12.64	-3.02	-15.34	-2.99	-15.38	-47.5	-30.56
286	-45.94	-13.22	-3.01	-15.42	-3.01	-15.49	-47.23	-30.21
288	-45.89	-13.87	-3.01	-15.54	-3	-15.55	-47.27	-30.99
290	-45.87	-13.64	-3.01	-15.72	-3	-15.71	-47.23	-30.87
292	-45.77	-13.67	-3	-15.75	-3.01	-15.83	-47.11	-33.12
294	-45.76	-13.58	-3.01	-15.96	-3	-15.94	-47.08	-32.23
296	-45.74	-13.28	-3.03	-16.07	-3.03	-15.99	-46.97	-32.09
298	-45.67	-14.43	-3.01	-16.15	-3.02	-16.12	-47.1	-31.37
300	-45.65	-14.36	-3.02	-16.22	-3.02	-16.15	-46.78	-33.03
302	-45.73	-14.07	-3.02	-16.34	-3.02	-16.29	-46.94	-33.07
304	-45.61	-14.39	-3.02	-16.47	-3.02	-16.48	-46.89	-33.21
306	-45.66	-14.73	-3	-16.58	-3.02	-16.54	-46.81	-32.43
308	-45.48	-14.32	-3.02	-16.67	-3.02	-16.7	-46.66	-33.47
310	-45.51	-13.53	-3.01	-16.77	-3.02	-16.73	-46.67	-33.24
312	-45.55	-14.05	-3.02	-16.95	-3.02	-16.88	-46.61	-33.3
314	-45.43	-14.22	-3.02	-17.02	-3.02	-16.93	-46.65	-33.3
316	-45.45	-13.58	-3.01	-17.14	-3.02	-17.04	-46.75	-32.29
318	-45.49	-13.64	-3	-17.21	-3.03	-17.22	-46.59	-33.56
320	-45.43	-13.14	-3.01	-17.29	-3.02	-17.28	-46.48	-32.84
322	-45.52	-13.62	-3.01	-17.38	-3.02	-17.38	-46.53	-32.22
324	-45.52	-14.05	-3.02	-17.51	-3.03	-17.45	-46.59	-33.66
326	-45.52	-13.56	-3.01	-17.66	-3.02	-17.6	-46.57	-33.63
328	-45.47	-14.3	-3.02	-17.77	-3.02	-17.73	-46.7	-32.99
330	-45.6	-13.45	-3.01	-17.82	-3.02	-17.86	-46.61	-33.91
332	-45.5	-14.13	-3.02	-17.91	-3.02	-17.91	-46.61	-33.41
334	-45.69	-14.12	-3.02	-18.07	-3.03	-18.04	-46.72	-34.24
336	-45.62	-13.88	-3.01	-18.21	-3.03	-18.1	-46.54	-34.57
338	-45.55	-13.45	-3.03	-18.22	-3.02	-18.27	-46.7	-34.34
340	-45.68	-13.63	-3.02	-18.38	-3.02	-18.34	-46.73	-35.27
342	-45.67	-14.77	-3.01	-18.48	-3.03	-18.4	-46.58	-34.91
344	-45.78	-14.42	-3.01	-18.57	-3.02	-18.57	-46.71	-35.59
346	-45.82	-14.9	-3	-18.69	-3.03	-18.69	-46.72	-35.85
348	-45.88	-15.09	-3.02	-18.76	-3.02	-18.82	-46.71	-36.51
350	-45.91	-15.2	-3.01	-18.87	-3.03	-18.91	-46.75	-37.16
352	-45.85	-16.98	-3	-19.02	-3.02	-18.98	-46.93	-37.66
354	-45.9	-16.68	-3.01	-19.14	-3.03	-19.11	-46.87	-38.82
356	-45.96	-17.14	-3.01	-19.22	-3.02	-19.16	-46.92	-38.1
358	-45.88	-17.59	-3.01	-19.31	-3.03	-19.36	-46.86	-39.45
360	-45.95	-18.2	-3.02	-19.55	-3.03	-19.34	-46.83	-39.58
362	-45.96	-18.28	-3.02	-19.59	-3.03	-19.6	-46.83	-40.35
364	-45.95	-19.09	-3.01	-19.54	-3.03	-19.65	-46.93	-41.26
366	-45.94	-19.39	-3.03	-19.72	-3.02	-19.72	-46.91	-41.87
368	-46.03	-19.79	-3.02	-19.88	-3.03	-19.87	-46.75	-42.12
370	-45.86	-19.78	-3.02	-20.01	-3.04	-19.95	-46.87	-43.35
372	-45.83	-21.04	-3.02	-20.07	-3.02	-20.11	-46.84	-43.06
374	-45.92	-21.21	-3.02	-20.16	-3.03	-20.2	-46.69	-43.88
376	-45.87	-21.59	-3.03	-20.34	-3.03	-20.31	-46.73	-45.83
378	-45.65	-23.02	-3.02	-20.45	-3.02	-20.4	-46.66	-45.16
380	-45.75	-22.34	-3.02	-20.57	-3.03	-20.48	-46.69	-45.68
382	-45.65	-22.05	-3.02	-20.61	-3.03	-20.68	-46.6	-46.11
384	-45.58	-24.05	-3.02	-20.73	-3.03	-20.73	-46.48	-45.95
386	-45.41	-23.34	-3.03	-20.87	-3.03	-20.84	-46.43	-46.59
388	-45.45	-24.16	-3.02	-20.96	-3.03	-20.97	-46.43	-46.63
390	-45.43	-24.45	-3.02	-21.06	-3.03	-21.03	-46.45	-47.04
392	-45.32	-23.88	-3.02	-21.18	-3.03	-21.11	-46.26	-47.59
394	-45.14	-24.3	-3.02	-21.31	-3.02	-21.21	-46.24	-47.36
396	-45.22	-24.92	-3.02	-21.4	-3.03	-21.33	-46.23	-47.77
398	-45.15	-24.51	-3.02	-21.46	-3.02	-21.47	-46.13	-47.75
400	-45.09	-24.81	-3.01	-21.53	-3.04	-21.54	-46.13	-47.86
402	-44.99	-24.65	-3.02	-21.73	-3.04	-21.65	-46.03	-49.47
404	-44.94	-24.54	-3.02	-21.79	-3.04	-21.74	-45.87	-48.9
406	-44.88	-25.09	-3.02	-21.93	-3.03	-21.92	-45.99	-48.27
408	-44.93	-24.54	-3.03	-22.05	-3.03	-22.01	-45.84	-48.66
410	-44.9	-24.61	-3.01	-22.1	-3.03	-22.13	-45.83	-49.12
412	-44.78	-24.22	-3.02	-22.21	-3.04	-22.29	-45.88	-50.1
414	-44.84	-23.8	-3.02	-22.34	-3.03	-22.41	-45.81	-48.54
416	-44.75	-24.38	-3.02	-22.47	-3.04	-22.39	-45.82	-49.65
418	-44.75	-23.83	-3.02	-22.58	-3.02	-22.58	-45.91	-48.71
420	-44.73	-23.55	-3.03	-22.66	-3.03	-22.66	-45.88	-50.16
422	-44.84	-22.97	-3.03	-22.81	-3.03	-22.76	-45.78	-50
424	-44.74	-22.84	-3.01	-22.87	-3.04	-22.86	-45.8	-49.52
426	-44.87	-22.36	-3.02	-22.98	-3.04	-22.99	-45.75	-48.43
428	-44.85	-22.54	-3.01	-23.1	-3.04	-23.12	-45.79	-49.3
430	-44.82	-22.05	-3.01	-23.14	-3.04	-23.21	-45.73	-49.52
432	-45	-21.67	-3.01	-23.33	-3.04	-23.29	-45.85	-49.73
434	-45	-21.97	-3.02	-23.44	-3.04	-23.44	-45.77	-50.22
436	-44.96	-21.56	-3.01	-23.56	-3.04	-23.54	-45.84	-51.75
438	-45.06	-21.45	-3.01	-23.63	-3.03	-23.62	-45.94	-51.03
440	-45.22	-21.2	-3.02	-23.73	-3.04	-23.67	-45.86	-51.34
442	-45.11	-21.39	-3.01	-23.86	-3.04	-23.77	-45.95	-51.05
444	-45.3	-21.02	-3.01	-23.96	-3.03	-23.97	-45.91	-50.84
446	-45.45	-21.44	-3.02	-24.05	-3.04	-24	-45.98	-51.37
448	-45.38	-21.48	-3.02	-24.15	-3.05	-24.11	-45.94	-51.39
450	-45.55	-21.7	-3.02	-24.27	-3.04	-24.34	-45.88	-52.58
452	-45.49	-21.37	-3.02	-24.43	-3.04	-24.41	-46.14	-52.75
454	-45.61	-22.44	-3.02	-24.41	-3.03	-24.52	-46.06	-53.95
456	-45.76	-22.03	-3.03	-24.54	-3.04	-24.54	-45.92	-53.2
458	-45.79	-22.13	-3.02	-24.65	-3.04	-24.65	-46.1	-53.58
460	-45.82	-22.96	-3.01	-24.9	-3.03	-24.81	-46.09	-54.47
462	-45.83	-22.73	-3.01	-24.95	-3.03	-24.87	-46.08	-54.94
464	-45.97	-23.34	-3.01	-24.93	-3.04	-24.99	-46.05	-54.6
466	-45.96	-23.22	-3.02	-25.18	-3.04	-25.11	-46.09	-55.63
468	-45.96	-23.94	-3.01	-25.18	-3.03	-25.18	-46.12	-56.46
470	-46.04	-23.91	-3.02	-25.35	-3.04	-25.35	-46.03	-55.99
472	-46.06	-24.79	-3.01	-25.45	-3.04	-25.44	-45.97	-57.4
474	-46.02	-25.49	-3.02	-25.54	-3.04	-25.55	-45.95	-58.02
476	-46.07	-26	-3.01	-25.62	-3.04	-25.66	-46.08	-58.87
478	-46.11	-27.13	-3.02	-25.71	-3.04	-25.82	-45.99	-59.35
480	-46.01	-27.47	-3.02	-25.88	-3.04	-25.84	-45.97	-59.48
482	-46.05	-28.56	-3.02	-25.97	-3.05	-25.95	-45.92	-60.1
484	-45.95	-28.39	-3.02	-26.05	-3.03	-26.08	-45.93	-61.01
486	-45.94	-28.33	-3.03	-26.23	-3.04	-26.17	-45.86	-61.3
488	-45.88	-29.73	-3.03	-26.33	-3.04	-26.28	-45.82	-61.36
490	-45.71	-29.87	-3.02	-26.39	-3.03	-26.43	-45.87	-62.4
492	-45.66	-31.29	-3.02	-26.48	-3.04	-26.47	-45.74	-62.98
494	-45.76	-31.56	-3.02	-26.6	-3.05	-26.64	-45.78	-63.53
496	-45.63	-31.79	-3.02	-26.71	-3.04	-26.71	-45.69	-62.87
498	-45.69	-31.63	-3.02	-26.83	-3.04	-26.84	-45.67	-63.39
500	-45.51	-32.4	-3.02	-26.92	-3.04	-26.92	-45.61	-63.65
502	-45.37	-33.08	-3.02	-27.03	-3.04	-27.07	-45.58	-64.06
504	-45.4	-32.9	-3.02	-27.17	-3.04	-27.15	-45.49	-64.83
506	-45.35	-32.88	-3.02	-27.31	-3.05	-27.25	-45.49	-64.73
508	-45.29	-33.12	-3.02	-27.36	-3.04	-27.36	-45.58	-65.08
510	-45.28	-33.41	-3.02	-27.38	-3.05	-27.56	-45.34	-65.55
512	-45.26	-33.45	-3.03	-27.57	-3.05	-27.62	-45.38	-66.28
514	-45.14	-34.42	-3.01	-27.65	-3.03	-27.7	-45.38	-65.25
516	-45.13	-35.05	-3.02	-27.85	-3.05	-27.78	-45.28	-66.1
518	-45.12	-34.17	-3.02	-27.87	-3.04	-27.9	-45.4	-66.13
520	-45.03	-34.12	-3.02	-28.03	-3.05	-28.08	-45.32	-66.32
522	-45.2	-34.9	-3.02	-28.11	-3.05	-28.12	-45.4	-66.34
524	-45.07	-34.44	-3.02	-28.24	-3.04	-28.22	-45.38	-66.94
526	-45.11	-34.09	-3.02	-28.3	-3.04	-28.35	-45.33	-67.95
528	-45.11	-34.39	-3.03	-28.37	-3.05	-28.39	-45.38	-68.39
530	-45.17	-34.22	-3.03	-28.58	-3.05	-28.54	-45.19	-68.46
532	-45.23	-34.04	-3.02	-28.64	-3.05	-28.67	-45.36	-69.16
534	-45.19	-34.18	-3.02	-28.74	-3.05	-28.74	-45.29	-68.31
536	-45.21	-32.98	-3.04	-28.85	-3.02	-28.82	-45.33	-69.32
538	-45.35	-33.12	-3.03	-29.03	-3.04	-29.01	-45.23	-69.33
540	-45.21	-33.8	-3.04	-29.08	-3.02	-29.05	-45.31	-69.79
542	-45.44	-32.99	-3.03	-29.15	-3.03	-29.2	-45.11	-70.88
544	-45.52	-33.77	-3.04	-29.33	-3.02	-29.28	-45.19	-70.55
546	-45.38	-32.37	-3.04	-29.41	-3.03	-29.42	-45.27	-70.49
548	-45.55	-32.17	-3.04	-29.49	-3.03	-29.51	-45.25	-70.41
550	-45.45	-32.27	-3.03	-29.63	-3.04	-29.7	-45.21	-71.32
552	-45.75	-32.84	-3.03	-29.69	-3.04	-29.77	-45.22	-72.18
554	-45.77	-32.16	-3.03	-29.87	-3.04	-29.87	-45.29	-72.78
556	-45.83	-32.8	-3.04	-29.91	-3.04	-29.98	-45.19	-72.54
558	-46	-33.05	-3.03	-29.99	-3.04	-30.11	-45.3	-72.82
560	-46.1	-32.7	-3.04	-30.11	-3.04	-30.18	-45.27	-74.17
562	-46.08	-32.47	-3.03	-30.3	-3.04	-30.27	-45.09	-74.34
564	-46.06	-33.13	-3.03	-30.43	-3.04	-30.36	-45.25	-74.64
566	-46.29	-33.48	-3.04	-30.48	-3.04	-30.51	-45.3	-75.39
568	-46.44	-32.82	-3.03	-30.58	-3.03	-30.56	-45.19	-75.32
570	-46.42	-34.36	-3.03	-30.69	-3.04	-30.7	-45.24	-76.58
572	-46.52	-35.48	-3.03	-30.79	-3.03	-30.87	-45.02	-77.5
574	-46.57	-34.91	-3.04	-30.94	-3.03	-30.89	-45.04	-77.65
576	-46.52	-35.08	-3.03	-31.03	-3.03	-30.99	-45.02	-77.72
578	-46.64	-35.81	-3.03	-31.1	-3.04	-31.14	-44.98	-77.92
580	-46.54	-36.26	-3.03	-31.29	-3.03	-31.22	-44.97	-78.51
582	-46.5	-36.1	-3.04	-31.28	-3.04	-31.33	-44.95	-79.57
584	-46.6	-37.74	-3.03	-31.46	-3.03	-31.45	-45.04	-78.89
586	-46.72	-37.84	-3.04	-31.57	-3.04	-31.55	-44.91	-79.17
588	-46.66	-38.51	-3.04	-31.64	-3.03	-31.69	-44.71	-79.74
590	-46.75	-39.48	-3.05	-31.82	-3.04	-31.74	-44.7	-81.18
592	-46.71	-40.97	-3.04	-31.84	-3.03	-31.91	-44.72	-80.27
594	-46.59	-40.59	-3.04	-31.98	-3.04	-31.94	-44.72	-80.96
596	-46.61	-42.66	-3.04	-32.1	-3.04	-32.07	-44.65	-81.89
598	-46.59	-41.54	-3.04	-32.21	-3.04	-32.24	-44.58	-82.16
600	-46.74	-41.83	-3.04	-32.31	-3.04	-32.32	-44.52	-82.82
602	-46.49	-44.16	-3.03	-32.38	-3.04	-32.44	-44.45	-82.25
604	-46.56	-43.68	-3.04	-32.61	-3.04	-32.54	-44.4	-82.62
606	-46.34	-43.89	-3.04	-32.59	-3.03	-32.66	-44.35	-83.54
608	-46.4	-44.47	-3.04	-32.76	-3.03	-32.77	-44.45	-83.92
610	-46.32	-43.91	-3.04	-32.83	-3.04	-32.88	-44.41	-83.56
612	-46.33	-45.26	-3.03	-32.98	-3.03	-33.04	-44.42	-84.02
614	-46.26	-45.12	-3.05	-33.03	-3.03	-33.15	-44.25	-84.33
616	-46.26	-45.06	-3.05	-33.07	-3.04	-33.16	-44.31	-85.19
618	-46.3	-44.82	-3.04	-33.33	-3.03	-33.3	-44.35	-85.18
620	-46.26	-45.45	-3.04	-33.37	-3.03	-33.41	-44.24	-84.66
622	-45.98	-45.45	-3.04	-33.48	-3.04	-33.51	-44.33	-84.9
624	-46.06	-45.88	-3.05	-33.63	-3.03	-33.59	-44.2	-85.68
626	-46.2	-44.53	-3.04	-33.74	-3.04	-33.74	-44.17	-85.45
628	-46.2	-45.75	-3.05	-33.84	-3.04	-33.84	-44.05	-86.51
630	-46.1	-45.74	-3.04	-33.92	-3.04	-33.94	-44.25	-86.48
632	-46.09	-45.82	-3.04	-34.02	-3.04	-34	-44.04	-86.69
634	-46.18	-45.57	-3.04	-34.09	-3.05	-34.08	-44.09	-87.48
636	-46.05	-45.1	-3.04	-34.25	-3.05	-34.27	-44.06	-86.86
638	-46.22	-44.72	-3.04	-34.37	-3.04	-34.35	-44.12	-87.14
640	-45.84	-45.4	-3.05	-34.41	-3.04	-34.47	-44.11	-87.66
642	-46.12	-45.01	-3.04	-34.53	-3.04	-34.56	-44.14	-87.73
644	-46.18	-44.95	-3.04	-34.58	-3.05	-34.68	-44.17	-87.88
646	-46.27	-44.79	-3.06	-34.79	-3.04	-34.78	-44	-87.7
648	-46.03	-44.55	-3.05	-34.93	-3.04	-34.85	-43.97	-89.06
650	-46.42	-44.79	-3.04	-34.99	-3.05	-34.99	-44.02	-88.95
652	-46.26	-45.01	-3.04	-35.17	-3.05	-35.11	-43.99	-88.91
654	-46.33	-45.81	-3.04	-35.17	-3.05	-35.24	-43.96	-89.34
656	-46.34	-44.36	-3.04	-35.27	-3.05	-35.33	-43.87	-90.02
658	-46.45	-44.84	-3.04	-35.39	-3.04	-35.4	-43.83	-90.6
660	-46.55	-44.96	-3.04	-35.52	-3.04	-35.49	-43.88	-91.39
662	-46.67	-44.94	-3.05	-35.57	-3.04	-35.57	-43.84	-91.23
664	-46.73	-45.06	-3.05	-35.74	-3.04	-35.7	-43.83	-91.05
666	-46.87	-46.09	-3.06	-35.83	-3.04	-35.86	-43.79	-91.92
668	-46.79	-45.63	-3.05	-35.88	-3.05	-35.98	-43.77	-92.64
670	-46.74	-45	-3.04	-35.99	-3.04	-36.01	-43.71	-92.62
672	-46.96	-47.2	-3.04	-36.15	-3.04	-36.23	-43.58	-93.24
674	-47.12	-46.55	-3.04	-36.21	-3.05	-36.29	-43.58	-93.56
676	-47.22	-46.96	-3.04	-36.35	-3.06	-36.37	-43.67	-94.45
678	-47.2	-47.76	-3.05	-36.45	-3.05	-36.44	-43.54	-94.23
680	-47.29	-47.62	-3.05	-36.6	-3.04	-36.64	-43.43	-94.85
682	-47.29	-49.75	-3.05	-36.7	-3.05	-36.71	-43.41	-95.83
