!Created: 10-09-2013 at 14:40:48
!Mini-Circuits
!S2P DATA File Format
!Type: LOW PASS FILTER
!MODEL: LFCN-95+
!S/N: Unit 1
!PIN OUT: PORT 1 - PIN 1, PORT 2 - PIN 3, GROUND - PIN 2,4
!TEST CONDITIONS: Z:50 OHM SYSTEM, INPUT POWER = -10dBm
!PROD RUN: MN31690 DATE CODE: 1314
!REMARK: UNITS MOUNTED ON TB-270 RUN#MN43610 D/C 1336. PORT EXTENSION HAS BEEN DONE.
!TESTED ON: NETWORK ANALYZER MODEL AG N5242A S/N 71932 CAL DUE DATE 3/15/14
# MHZ S DB R 50
!Frequency        S11 dB  S11 DEG   S21 dB  S21 DEG   S12 dB  S12 DEG   S22 dB  S22 DEG
  10.0000     -3.147807E+001 -1.072339E+000 -2.848303E-001 -9.019616E+000 -2.835495E-001 -9.119261E+000 -3.205112E+001 -1.369309E+001
  11.0000     -3.068585E+001 -1.742803E+001 -3.067528E-001 -9.638548E+000 -3.015142E-001 -9.557385E+000 -3.078486E+001 -1.803663E+001
  12.0000     -3.038280E+001 -2.446282E+001 -3.137083E-001 -1.021886E+001 -3.062928E-001 -1.015766E+001 -3.022299E+001 -2.610365E+001
  13.0000     -3.030108E+001 -2.503528E+001 -3.158413E-001 -1.102759E+001 -3.071303E-001 -1.100478E+001 -2.997987E+001 -2.635303E+001
  14.0000     -3.041309E+001 -2.293103E+001 -3.142720E-001 -1.197239E+001 -3.092844E-001 -1.195603E+001 -3.010312E+001 -2.382204E+001
  15.0000     -3.068114E+001 -1.693201E+001 -3.151016E-001 -1.297140E+001 -3.079020E-001 -1.305619E+001 -2.975477E+001 -2.041239E+001
  16.0000     -3.052101E+001 -1.126397E+001 -3.202323E-001 -1.413826E+001 -3.156768E-001 -1.415773E+001 -3.022032E+001 -1.343874E+001
  17.0000     -3.023984E+001 -5.266870E+000 -3.270509E-001 -1.527739E+001 -3.205960E-001 -1.529926E+001 -3.003283E+001 -7.672843E+000
  18.0000     -2.984193E+001 -1.336620E+000 -3.388920E-001 -1.640399E+001 -3.288662E-001 -1.643153E+001 -2.969203E+001 -2.849738E+000
  19.0000     -2.950146E+001  1.801586E+000 -3.488928E-001 -1.753571E+001 -3.397729E-001 -1.753540E+001 -2.917467E+001  2.389045E-001
  20.0000     -2.910050E+001  2.844571E+000 -3.559330E-001 -1.862185E+001 -3.508419E-001 -1.862703E+001 -2.886291E+001  2.580905E+000
  21.0000     -2.882895E+001  3.427539E+000 -3.716422E-001 -1.964580E+001 -3.604424E-001 -1.969638E+001 -2.845383E+001  2.939896E+000
  22.0000     -2.863400E+001  2.320953E+000 -3.823982E-001 -2.062052E+001 -3.716546E-001 -2.069744E+001 -2.820303E+001  2.047749E+000
  23.0000     -2.841921E+001  1.340271E+000 -3.904211E-001 -2.157424E+001 -3.792781E-001 -2.164486E+001 -2.801910E+001  1.212323E+000
  24.0000     -2.827823E+001 -2.648673E-001 -3.974854E-001 -2.249636E+001 -3.868659E-001 -2.256800E+001 -2.786206E+001 -3.371682E-001
  25.0000     -2.811461E+001 -1.965670E+000 -4.029065E-001 -2.341373E+001 -3.944765E-001 -2.344801E+001 -2.766827E+001 -1.320974E+000
  26.0000     -2.818241E+001 -3.451879E+000 -4.074922E-001 -2.426775E+001 -3.985332E-001 -2.434267E+001 -2.763575E+001 -3.196683E+000
  27.0000     -2.817945E+001 -5.173680E+000 -4.111655E-001 -2.513288E+001 -4.018198E-001 -2.518779E+001 -2.750335E+001 -4.977891E+000
  28.0000     -2.810924E+001 -6.631297E+000 -4.123014E-001 -2.598934E+001 -4.043268E-001 -2.603053E+001 -2.746801E+001 -6.100059E+000
  29.0000     -2.806071E+001 -7.644094E+000 -4.151829E-001 -2.685421E+001 -4.085248E-001 -2.690309E+001 -2.740378E+001 -7.428493E+000
  30.0000     -2.806941E+001 -8.605655E+000 -4.176696E-001 -2.772324E+001 -4.100069E-001 -2.773349E+001 -2.741504E+001 -8.951087E+000
  31.0000     -2.796760E+001 -9.720467E+000 -4.207594E-001 -2.859661E+001 -4.134533E-001 -2.864096E+001 -2.728660E+001 -9.887059E+000
  32.0000     -2.789647E+001 -1.085177E+001 -4.243686E-001 -2.949662E+001 -4.183330E-001 -2.953408E+001 -2.719246E+001 -1.074402E+001
  33.0000     -2.784292E+001 -1.178038E+001 -4.279118E-001 -3.040673E+001 -4.243854E-001 -3.043592E+001 -2.713204E+001 -1.183466E+001
  34.0000     -2.774894E+001 -1.272059E+001 -4.331464E-001 -3.133014E+001 -4.290349E-001 -3.134714E+001 -2.697972E+001 -1.293368E+001
  35.0000     -2.760071E+001 -1.376883E+001 -4.406641E-001 -3.226962E+001 -4.335466E-001 -3.223481E+001 -2.681675E+001 -1.398103E+001
  36.0000     -2.761801E+001 -1.513515E+001 -4.434800E-001 -3.318605E+001 -4.402287E-001 -3.318451E+001 -2.677517E+001 -1.538982E+001
  37.0000     -2.751724E+001 -1.667355E+001 -4.501910E-001 -3.411714E+001 -4.445544E-001 -3.411003E+001 -2.675359E+001 -1.646690E+001
  38.0000     -2.747616E+001 -1.776257E+001 -4.556661E-001 -3.505103E+001 -4.528666E-001 -3.504887E+001 -2.668131E+001 -1.780313E+001
  39.0000     -2.739582E+001 -1.907629E+001 -4.626969E-001 -3.598428E+001 -4.592630E-001 -3.598511E+001 -2.660738E+001 -1.900884E+001
  40.0000     -2.734602E+001 -2.075596E+001 -4.697942E-001 -3.691570E+001 -4.634185E-001 -3.692939E+001 -2.651287E+001 -2.023320E+001
  41.0000     -2.730530E+001 -2.149914E+001 -4.739097E-001 -3.785760E+001 -4.706833E-001 -3.784483E+001 -2.649552E+001 -2.137793E+001
  42.0000     -2.724422E+001 -2.281515E+001 -4.811495E-001 -3.878511E+001 -4.776066E-001 -3.877712E+001 -2.642303E+001 -2.266514E+001
  43.0000     -2.720853E+001 -2.393273E+001 -4.868510E-001 -3.972034E+001 -4.824880E-001 -3.971570E+001 -2.635212E+001 -2.380533E+001
  44.0000     -2.714142E+001 -2.495209E+001 -4.906472E-001 -4.064254E+001 -4.882646E-001 -4.064577E+001 -2.632297E+001 -2.508964E+001
  45.0000     -2.712311E+001 -2.599923E+001 -4.960783E-001 -4.157140E+001 -4.926452E-001 -4.157540E+001 -2.630197E+001 -2.607119E+001
  46.0000     -2.711484E+001 -2.704659E+001 -5.012820E-001 -4.249934E+001 -4.981506E-001 -4.249871E+001 -2.626353E+001 -2.738071E+001
  47.0000     -2.706038E+001 -2.811480E+001 -5.057149E-001 -4.342608E+001 -5.033953E-001 -4.343359E+001 -2.622585E+001 -2.841204E+001
  48.0000     -2.704494E+001 -2.918974E+001 -5.109538E-001 -4.435759E+001 -5.090954E-001 -4.435154E+001 -2.618605E+001 -2.951577E+001
  49.0000     -2.704603E+001 -3.022796E+001 -5.165525E-001 -4.528510E+001 -5.135453E-001 -4.528588E+001 -2.614863E+001 -3.052605E+001
  50.0000     -2.793687E+001 -2.719603E+001 -5.466090E-001 -4.635933E+001 -4.805339E-001 -4.598315E+001 -2.601422E+001 -3.524785E+001
  51.0000     -2.700617E+001 -3.201438E+001 -5.267407E-001 -4.715191E+001 -5.226966E-001 -4.714486E+001 -2.609406E+001 -3.260497E+001
  52.0000     -2.698496E+001 -3.301428E+001 -5.315952E-001 -4.809288E+001 -5.281177E-001 -4.808822E+001 -2.607381E+001 -3.368459E+001
  53.0000     -2.696944E+001 -3.380194E+001 -5.366355E-001 -4.903476E+001 -5.335689E-001 -4.902338E+001 -2.605385E+001 -3.481883E+001
  54.0000     -2.720302E+001 -3.619964E+001 -5.468804E-001 -4.986502E+001 -5.410426E-001 -4.989333E+001 -2.634767E+001 -3.733226E+001
  55.0000     -2.719373E+001 -3.718569E+001 -5.526111E-001 -5.081461E+001 -5.462617E-001 -5.084336E+001 -2.630564E+001 -3.834140E+001
  56.0000     -2.720238E+001 -3.847649E+001 -5.583126E-001 -5.175852E+001 -5.511155E-001 -5.179479E+001 -2.627572E+001 -3.937027E+001
  57.0000     -2.720023E+001 -3.960638E+001 -5.640895E-001 -5.270837E+001 -5.569292E-001 -5.274887E+001 -2.624276E+001 -4.049394E+001
  58.0000     -2.718280E+001 -4.049205E+001 -5.690682E-001 -5.366645E+001 -5.630261E-001 -5.370176E+001 -2.624306E+001 -4.142201E+001
  59.0000     -2.717323E+001 -4.168704E+001 -5.750318E-001 -5.462859E+001 -5.677332E-001 -5.466105E+001 -2.620338E+001 -4.236950E+001
  60.0000     -2.691795E+001 -4.169052E+001 -5.610055E-001 -5.560725E+001 -5.831439E-001 -5.562138E+001 -2.646584E+001 -4.033157E+001
  61.0000     -2.714306E+001 -4.357129E+001 -5.870075E-001 -5.654718E+001 -5.792362E-001 -5.657590E+001 -2.616216E+001 -4.420129E+001
  62.0000     -2.711356E+001 -4.463099E+001 -5.923515E-001 -5.751789E+001 -5.859542E-001 -5.754773E+001 -2.612802E+001 -4.510070E+001
  63.0000     -2.715239E+001 -4.553936E+001 -5.978763E-001 -5.848129E+001 -5.920208E-001 -5.850731E+001 -2.609116E+001 -4.599324E+001
  64.0000     -2.709511E+001 -4.660220E+001 -6.045665E-001 -5.945291E+001 -5.982049E-001 -5.947346E+001 -2.607747E+001 -4.705804E+001
  65.0000     -2.712782E+001 -4.757530E+001 -6.120836E-001 -6.041714E+001 -6.040497E-001 -6.045237E+001 -2.607034E+001 -4.788512E+001
  66.0000     -2.710341E+001 -4.839911E+001 -6.163825E-001 -6.139849E+001 -6.098819E-001 -6.142669E+001 -2.602028E+001 -4.876842E+001
  67.0000     -2.709404E+001 -4.921162E+001 -6.226207E-001 -6.236985E+001 -6.161630E-001 -6.240500E+001 -2.599746E+001 -4.960476E+001
  68.0000     -2.707514E+001 -5.013509E+001 -6.293730E-001 -6.335564E+001 -6.217927E-001 -6.338647E+001 -2.599869E+001 -5.030928E+001
  69.0000     -2.710306E+001 -5.093937E+001 -6.347227E-001 -6.434171E+001 -6.299611E-001 -6.436855E+001 -2.595506E+001 -5.146421E+001
  70.0000     -2.707783E+001 -5.169067E+001 -6.416342E-001 -6.533182E+001 -6.357827E-001 -6.536640E+001 -2.588608E+001 -5.217037E+001
  71.0000     -2.710144E+001 -5.242818E+001 -6.474341E-001 -6.632935E+001 -6.417720E-001 -6.634466E+001 -2.589919E+001 -5.295068E+001
  72.0000     -2.710866E+001 -5.318986E+001 -6.540757E-001 -6.732332E+001 -6.474732E-001 -6.734370E+001 -2.588777E+001 -5.366109E+001
  73.0000     -2.712234E+001 -5.396475E+001 -6.597567E-001 -6.832448E+001 -6.542963E-001 -6.833823E+001 -2.588632E+001 -5.450454E+001
  74.0000     -2.712084E+001 -5.481900E+001 -6.668437E-001 -6.932568E+001 -6.611576E-001 -6.934650E+001 -2.584706E+001 -5.540086E+001
  75.0000     -2.714129E+001 -5.521317E+001 -6.721660E-001 -7.032699E+001 -6.663823E-001 -7.034055E+001 -2.584138E+001 -5.577401E+001
  76.0000     -2.716374E+001 -5.612916E+001 -6.782746E-001 -7.133953E+001 -6.742121E-001 -7.135436E+001 -2.584794E+001 -5.680954E+001
  77.0000     -2.716431E+001 -5.662274E+001 -6.851530E-001 -7.235602E+001 -6.815389E-001 -7.236062E+001 -2.582415E+001 -5.758332E+001
  78.0000     -2.717683E+001 -5.723147E+001 -6.922624E-001 -7.337382E+001 -6.872408E-001 -7.338123E+001 -2.581136E+001 -5.835928E+001
  79.0000     -2.715823E+001 -5.795708E+001 -6.989658E-001 -7.439623E+001 -6.934482E-001 -7.440300E+001 -2.578222E+001 -5.906183E+001
  80.0000     -2.716296E+001 -5.847472E+001 -7.045077E-001 -7.542435E+001 -7.026905E-001 -7.542730E+001 -2.576613E+001 -5.998469E+001
  81.0000     -2.717794E+001 -5.894911E+001 -7.126806E-001 -7.645229E+001 -7.075638E-001 -7.645414E+001 -2.578605E+001 -6.030342E+001
  82.0000     -2.717249E+001 -5.945856E+001 -7.196195E-001 -7.747982E+001 -7.143817E-001 -7.748761E+001 -2.573347E+001 -6.098860E+001
  83.0000     -2.717330E+001 -5.989743E+001 -7.268510E-001 -7.852113E+001 -7.219357E-001 -7.852372E+001 -2.573344E+001 -6.163998E+001
  84.0000     -2.719016E+001 -6.019456E+001 -7.338624E-001 -7.955733E+001 -7.293237E-001 -7.956459E+001 -2.573094E+001 -6.225483E+001
  85.0000     -2.717717E+001 -6.052884E+001 -7.415476E-001 -8.060455E+001 -7.370474E-001 -8.061333E+001 -2.569977E+001 -6.280535E+001
  86.0000     -2.716769E+001 -6.098315E+001 -7.491703E-001 -8.165427E+001 -7.441580E-001 -8.166084E+001 -2.568013E+001 -6.350476E+001
  87.0000     -2.714142E+001 -6.146431E+001 -7.567888E-001 -8.271024E+001 -7.513757E-001 -8.271370E+001 -2.565432E+001 -6.405287E+001
  88.0000     -2.712668E+001 -6.165709E+001 -7.648169E-001 -8.376911E+001 -7.590565E-001 -8.377706E+001 -2.563256E+001 -6.454814E+001
  89.0000     -2.711116E+001 -6.183130E+001 -7.719565E-001 -8.483328E+001 -7.672358E-001 -8.484360E+001 -2.560008E+001 -6.500908E+001
  90.0000     -2.705603E+001 -6.216202E+001 -7.777876E-001 -8.591264E+001 -7.724328E-001 -8.590083E+001 -2.558885E+001 -6.507381E+001
  91.0000     -2.707633E+001 -6.239418E+001 -7.872975E-001 -8.698164E+001 -7.827628E-001 -8.698768E+001 -2.555033E+001 -6.591678E+001
  92.0000     -2.704457E+001 -6.251363E+001 -7.959156E-001 -8.805743E+001 -7.907408E-001 -8.806808E+001 -2.552537E+001 -6.636142E+001
  93.0000     -2.702603E+001 -6.268172E+001 -8.038996E-001 -8.914326E+001 -7.986419E-001 -8.915724E+001 -2.548751E+001 -6.679203E+001
  94.0000     -2.699000E+001 -6.278544E+001 -8.124714E-001 -9.023726E+001 -8.063326E-001 -9.024734E+001 -2.544869E+001 -6.720542E+001
  95.0000     -2.694721E+001 -6.297617E+001 -8.202781E-001 -9.133809E+001 -8.156791E-001 -9.134682E+001 -2.540195E+001 -6.762215E+001
  96.0000     -2.691158E+001 -6.284920E+001 -8.289950E-001 -9.243727E+001 -8.231953E-001 -9.245390E+001 -2.536562E+001 -6.799762E+001
  97.0000     -2.685848E+001 -6.295406E+001 -8.372042E-001 -9.354996E+001 -8.316107E-001 -9.356315E+001 -2.529692E+001 -6.828473E+001
  98.0000     -2.679608E+001 -6.285825E+001 -8.461297E-001 -9.466717E+001 -8.406483E-001 -9.467764E+001 -2.521968E+001 -6.866808E+001
  99.0000     -2.676508E+001 -6.277761E+001 -8.552120E-001 -9.578425E+001 -8.499514E-001 -9.579613E+001 -2.519827E+001 -6.892233E+001
 100.0000     -2.673439E+001 -6.272732E+001 -8.653005E-001 -9.691144E+001 -8.557548E-001 -9.691674E+001 -2.513778E+001 -6.912894E+001
 101.0000     -2.662963E+001 -6.250447E+001 -8.738413E-001 -9.804185E+001 -8.669462E-001 -9.806320E+001 -2.505108E+001 -6.947964E+001
 102.0000     -2.654951E+001 -6.248993E+001 -8.826838E-001 -9.918633E+001 -8.766401E-001 -9.920213E+001 -2.496991E+001 -6.983981E+001
 103.0000     -2.648893E+001 -6.226796E+001 -8.920732E-001 -1.003304E+002 -8.864660E-001 -1.003556E+002 -2.490726E+001 -7.009476E+001
 104.0000     -2.639695E+001 -6.198936E+001 -9.022453E-001 -1.014846E+002 -8.953824E-001 -1.015066E+002 -2.482587E+001 -7.040443E+001
 105.0000     -2.630500E+001 -6.168575E+001 -9.119234E-001 -1.026462E+002 -9.047450E-001 -1.026661E+002 -2.472897E+001 -7.058247E+001
 106.0000     -2.618860E+001 -6.126491E+001 -9.214634E-001 -1.038111E+002 -9.160073E-001 -1.038248E+002 -2.466107E+001 -7.076357E+001
 107.0000     -2.606325E+001 -6.096893E+001 -9.318694E-001 -1.049854E+002 -9.259661E-001 -1.050046E+002 -2.455136E+001 -7.109393E+001
 108.0000     -2.596696E+001 -6.063793E+001 -9.429627E-001 -1.061682E+002 -9.365292E-001 -1.061848E+002 -2.444547E+001 -7.137835E+001
 109.0000     -2.583799E+001 -6.037886E+001 -9.534193E-001 -1.073589E+002 -9.473089E-001 -1.073766E+002 -2.433035E+001 -7.165250E+001
 110.0000     -2.572936E+001 -5.996342E+001 -9.650478E-001 -1.085535E+002 -9.577566E-001 -1.085811E+002 -2.421112E+001 -7.194205E+001
 111.0000     -2.558359E+001 -5.963009E+001 -9.764502E-001 -1.097652E+002 -9.697169E-001 -1.097811E+002 -2.409203E+001 -7.220377E+001
 112.0000     -2.541101E+001 -5.919118E+001 -9.877330E-001 -1.109773E+002 -9.816812E-001 -1.110007E+002 -2.396268E+001 -7.262331E+001
 113.0000     -2.526092E+001 -5.888415E+001 -9.985101E-001 -1.122003E+002 -9.928246E-001 -1.122114E+002 -2.383405E+001 -7.290446E+001
 114.0000     -2.509691E+001 -5.853204E+001 -1.010198E+000 -1.134302E+002 -1.004589E+000 -1.134429E+002 -2.369365E+001 -7.324266E+001
 115.0000     -2.491582E+001 -5.817760E+001 -1.023113E+000 -1.146716E+002 -1.016773E+000 -1.146848E+002 -2.353132E+001 -7.363814E+001
 116.0000     -2.470975E+001 -5.779027E+001 -1.035278E+000 -1.159209E+002 -1.028927E+000 -1.159322E+002 -2.338819E+001 -7.410028E+001
 117.0000     -2.451286E+001 -5.741412E+001 -1.047960E+000 -1.171731E+002 -1.041430E+000 -1.171925E+002 -2.322818E+001 -7.452728E+001
 118.0000     -2.432508E+001 -5.706652E+001 -1.061286E+000 -1.184460E+002 -1.055057E+000 -1.184594E+002 -2.306830E+001 -7.500870E+001
 119.0000     -2.409833E+001 -5.667891E+001 -1.074430E+000 -1.197177E+002 -1.068315E+000 -1.197343E+002 -2.289004E+001 -7.552517E+001
 120.0000     -2.385890E+001 -5.625570E+001 -1.086880E+000 -1.210124E+002 -1.081350E+000 -1.210097E+002 -2.270839E+001 -7.605083E+001
 121.0000     -2.363779E+001 -5.608411E+001 -1.101766E+000 -1.223041E+002 -1.095582E+000 -1.223154E+002 -2.253573E+001 -7.659821E+001
 122.0000     -2.340310E+001 -5.586475E+001 -1.116533E+000 -1.236116E+002 -1.110339E+000 -1.236207E+002 -2.235067E+001 -7.726295E+001
 123.0000     -2.314677E+001 -5.555095E+001 -1.130510E+000 -1.249285E+002 -1.124892E+000 -1.249389E+002 -2.216063E+001 -7.785912E+001
 124.0000     -2.289953E+001 -5.532919E+001 -1.146930E+000 -1.262543E+002 -1.140227E+000 -1.262616E+002 -2.197007E+001 -7.852446E+001
 125.0000     -2.262704E+001 -5.525061E+001 -1.162283E+000 -1.276058E+002 -1.153707E+000 -1.276033E+002 -2.177398E+001 -7.919583E+001
 126.0000     -2.237166E+001 -5.507539E+001 -1.177760E+000 -1.289457E+002 -1.171656E+000 -1.289556E+002 -2.157493E+001 -8.008333E+001
 127.0000     -2.210966E+001 -5.501468E+001 -1.194276E+000 -1.303034E+002 -1.187317E+000 -1.303207E+002 -2.136397E+001 -8.092827E+001
 128.0000     -2.184106E+001 -5.495569E+001 -1.211301E+000 -1.316818E+002 -1.205695E+000 -1.317001E+002 -2.116788E+001 -8.179705E+001
 129.0000     -2.155867E+001 -5.489988E+001 -1.229555E+000 -1.330639E+002 -1.222142E+000 -1.330779E+002 -2.094236E+001 -8.277505E+001
 130.0000     -2.128147E+001 -5.489553E+001 -1.246979E+000 -1.344665E+002 -1.239343E+000 -1.344849E+002 -2.072226E+001 -8.375790E+001
 131.0000     -2.098052E+001 -5.490978E+001 -1.265686E+000 -1.358717E+002 -1.258011E+000 -1.358890E+002 -2.052337E+001 -8.477179E+001
 132.0000     -2.068923E+001 -5.506516E+001 -1.284235E+000 -1.373012E+002 -1.278247E+000 -1.373170E+002 -2.029709E+001 -8.586922E+001
 133.0000     -2.039077E+001 -5.519190E+001 -1.304150E+000 -1.387390E+002 -1.296678E+000 -1.387514E+002 -2.007660E+001 -8.699918E+001
 134.0000     -2.008468E+001 -5.542755E+001 -1.323903E+000 -1.401906E+002 -1.317891E+000 -1.402144E+002 -1.985305E+001 -8.819894E+001
 135.0000     -1.979514E+001 -5.560138E+001 -1.344662E+000 -1.416566E+002 -1.338064E+000 -1.416756E+002 -1.963514E+001 -8.942080E+001
 136.0000     -1.947846E+001 -5.585925E+001 -1.366700E+000 -1.431370E+002 -1.360029E+000 -1.431607E+002 -1.940614E+001 -9.072134E+001
 137.0000     -1.917505E+001 -5.619887E+001 -1.389100E+000 -1.446403E+002 -1.382136E+000 -1.446539E+002 -1.917636E+001 -9.207440E+001
 138.0000     -1.886528E+001 -5.653811E+001 -1.412384E+000 -1.461501E+002 -1.405696E+000 -1.461675E+002 -1.895343E+001 -9.344698E+001
 139.0000     -1.856074E+001 -5.695106E+001 -1.436179E+000 -1.476809E+002 -1.429628E+000 -1.476943E+002 -1.872011E+001 -9.488475E+001
 140.0000     -1.824535E+001 -5.741682E+001 -1.461614E+000 -1.492235E+002 -1.454475E+000 -1.492408E+002 -1.850412E+001 -9.640229E+001
 141.0000     -1.793717E+001 -5.784441E+001 -1.486644E+000 -1.507836E+002 -1.480341E+000 -1.507976E+002 -1.826693E+001 -9.800005E+001
 142.0000     -1.762570E+001 -5.835465E+001 -1.513511E+000 -1.523619E+002 -1.507675E+000 -1.523751E+002 -1.803933E+001 -9.955905E+001
 143.0000     -1.731223E+001 -5.889004E+001 -1.540826E+000 -1.539505E+002 -1.535311E+000 -1.539742E+002 -1.780684E+001 -1.012888E+002
 144.0000     -1.700267E+001 -5.948761E+001 -1.569955E+000 -1.555732E+002 -1.563513E+000 -1.555835E+002 -1.758039E+001 -1.029810E+002
 145.0000     -1.669106E+001 -6.012267E+001 -1.600064E+000 -1.571987E+002 -1.593125E+000 -1.572176E+002 -1.734987E+001 -1.047846E+002
 146.0000     -1.638026E+001 -6.078436E+001 -1.630778E+000 -1.588480E+002 -1.625142E+000 -1.588628E+002 -1.712683E+001 -1.065903E+002
 147.0000     -1.608886E+001 -6.146540E+001 -1.661964E+000 -1.605168E+002 -1.656641E+000 -1.605300E+002 -1.689633E+001 -1.083972E+002
 148.0000     -1.578584E+001 -6.222178E+001 -1.695849E+000 -1.622064E+002 -1.690117E+000 -1.622278E+002 -1.667143E+001 -1.103134E+002
 149.0000     -1.546973E+001 -6.296592E+001 -1.731618E+000 -1.639162E+002 -1.724576E+000 -1.639334E+002 -1.644531E+001 -1.123187E+002
 150.0000     -1.517767E+001 -6.384672E+001 -1.772236E+000 -1.656664E+002 -1.765104E+000 -1.656638E+002 -1.621373E+001 -1.141946E+002
 151.0000     -1.486068E+001 -6.460384E+001 -1.806074E+000 -1.673935E+002 -1.799381E+000 -1.674031E+002 -1.599501E+001 -1.164865E+002
 152.0000     -1.455217E+001 -6.542782E+001 -1.846119E+000 -1.691581E+002 -1.839454E+000 -1.691817E+002 -1.576993E+001 -1.187276E+002
 153.0000     -1.425077E+001 -6.630769E+001 -1.887125E+000 -1.709517E+002 -1.880483E+000 -1.709686E+002 -1.554629E+001 -1.209449E+002
