! Mini-Circuits
! S2P DATA File Format
! Type: Low Pass LTCC Surface Mount Filter
! Model: LFCV-45+    
! Note: All S Parameters are in dB deg format
! TEST CONDITIONS: INPUT POWER = 0dBm @Temperature = +25degC
! 401 Frequency points
!

# Hz S dB R 50
300000	-2.780364e+001	1.438846e+001	-3.526147e-001	-1.284173e+000	-2.837120e-001	-7.409877e-001	-2.941164e+001	1.070413e+001
10298500	-2.199559e+001	-1.004507e+001	-4.643204e-001	-2.907006e+001	-4.566707e-001	-2.929083e+001	-2.243104e+001	-8.079041e+000
20297000	-2.279934e+001	-7.215593e+001	-5.670906e-001	-5.740991e+001	-5.289082e-001	-5.758951e+001	-2.341989e+001	-6.653387e+001
30295500	-2.235345e+001	-1.346923e+002	-7.167372e-001	-8.657412e+001	-7.027587e-001	-8.654356e+001	-2.318895e+001	-1.333162e+002
40294000	-2.198530e+001	1.749107e+002	-8.742823e-001	-1.171170e+002	-8.602415e-001	-1.170951e+002	-2.222106e+001	1.731775e+002
50292500	-2.095515e+001	1.249393e+002	-1.072130e+000	-1.503060e+002	-1.070475e+000	-1.504935e+002	-2.085976e+001	1.230707e+002
60291000	-1.808868e+001	7.437377e+001	-1.357273e+000	1.721065e+002	-1.359404e+000	1.722410e+002	-1.795936e+001	7.427972e+001
70289500	-1.294128e+001	2.370518e+001	-1.920444e+000	1.280001e+002	-1.910068e+000	1.278468e+002	-1.292499e+001	2.594692e+001
80288000	-6.860661e+000	-2.994098e+001	-3.556762e+000	7.369562e+001	-3.547043e+000	7.348812e+001	-6.866051e+000	-2.720076e+001
90286500	-2.956470e+000	-8.596091e+001	-7.900271e+000	1.527912e+001	-7.850913e+000	1.530715e+001	-2.982396e+000	-8.364104e+001
100285000	-1.663613e+000	-1.307483e+002	-1.434050e+001	-3.092432e+001	-1.428919e+001	-3.175518e+001	-1.657704e+000	-1.290377e+002
110283500	-1.321278e+000	-1.627209e+002	-2.086111e+001	-6.417777e+001	-2.084842e+001	-6.473733e+001	-1.282262e+000	-1.615076e+002
120282000	-1.171575e+000	1.737973e+002	-2.663707e+001	-8.847017e+001	-2.663475e+001	-8.909398e+001	-1.149839e+000	1.746243e+002
130280500	-1.069991e+000	1.555248e+002	-3.159353e+001	-1.078404e+002	-3.145844e+001	-1.077311e+002	-1.088040e+000	1.559689e+002
140279000	-1.013649e+000	1.408015e+002	-3.551162e+001	-1.225390e+002	-3.555992e+001	-1.236232e+002	-1.050757e+000	1.404621e+002
150277500	-9.568025e-001	1.282290e+002	-3.912390e+001	-1.358005e+002	-3.921969e+001	-1.366204e+002	-9.632280e-001	1.273448e+002
160276000	-8.864398e-001	1.172041e+002	-4.226376e+001	-1.466322e+002	-4.248186e+001	-1.443181e+002	-8.714686e-001	1.166491e+002
170274500	-8.515934e-001	1.075085e+002	-4.545146e+001	-1.562540e+002	-4.557982e+001	-1.562546e+002	-8.473292e-001	1.075888e+002
180273000	-8.119752e-001	9.901034e+001	-4.881396e+001	-1.608338e+002	-4.848771e+001	-1.637949e+002	-8.030340e-001	9.903991e+001
190271500	-7.616288e-001	9.149997e+001	-5.289320e+001	-1.708641e+002	-5.255002e+001	-1.682064e+002	-7.506968e-001	9.138889e+001
200270000	-7.224315e-001	8.482391e+001	-5.715062e+001	-1.716366e+002	-5.660398e+001	-1.590830e+002	-7.010141e-001	8.464068e+001
210268500	-6.946810e-001	7.883637e+001	-6.381112e+001	-1.679924e+002	-6.763425e+001	1.799835e+002	-6.623220e-001	7.859944e+001
220267000	-6.542869e-001	7.315543e+001	-6.675973e+001	-4.189228e+001	-7.163816e+001	-6.483355e+001	-6.256290e-001	7.299568e+001
230265500	-6.130751e-001	6.795296e+001	-6.052025e+001	-2.472444e+001	-5.900100e+001	-4.892592e+001	-5.936611e-001	6.774662e+001
240264000	-5.799505e-001	6.315407e+001	-5.686528e+001	-2.673198e+001	-5.754351e+001	-3.428436e+001	-5.746165e-001	6.312390e+001
250262500	-5.622060e-001	5.868884e+001	-5.480298e+001	-3.708486e+001	-5.559000e+001	-4.013836e+001	-5.302051e-001	5.860226e+001
260261000	-4.784082e-001	5.425697e+001	-5.280887e+001	-3.787617e+001	-5.355110e+001	-3.570728e+001	-4.853089e-001	5.399510e+001
270259500	-3.908941e-001	5.025022e+001	-5.345078e+001	-3.523261e+001	-5.280116e+001	-4.065017e+001	-3.663833e-001	4.951873e+001
280258000	-3.614953e-001	4.653508e+001	-5.137198e+001	-4.613866e+001	-5.122564e+001	-4.760429e+001	-3.024810e-001	4.582294e+001
290256500	-3.914610e-001	4.309598e+001	-5.038349e+001	-4.761595e+001	-5.094937e+001	-4.877476e+001	-3.436215e-001	4.277302e+001
300255000	-4.251745e-001	3.971916e+001	-5.013732e+001	-4.749195e+001	-5.038726e+001	-5.145562e+001	-4.127153e-001	3.947615e+001
310253500	-4.129169e-001	3.643971e+001	-4.992377e+001	-4.513549e+001	-4.990686e+001	-5.104826e+001	-4.085208e-001	3.621383e+001
320252000	-3.953796e-001	3.327137e+001	-4.961727e+001	-5.313790e+001	-4.963504e+001	-5.336945e+001	-3.947589e-001	3.311092e+001
330250500	-3.710468e-001	3.040092e+001	-4.903771e+001	-5.912064e+001	-4.907858e+001	-5.796812e+001	-3.534921e-001	3.021321e+001
340249000	-3.576716e-001	2.759448e+001	-4.888083e+001	-6.402119e+001	-4.925168e+001	-5.987359e+001	-3.338099e-001	2.724624e+001
350247500	-3.360296e-001	2.496891e+001	-4.909700e+001	-6.605389e+001	-4.885733e+001	-6.191017e+001	-3.385299e-001	2.456744e+001
360246000	-3.301271e-001	2.226517e+001	-4.898232e+001	-6.323811e+001	-4.878366e+001	-6.706090e+001	-3.373997e-001	2.194389e+001
370244500	-3.317664e-001	1.978122e+001	-4.910417e+001	-6.673810e+001	-4.921403e+001	-7.060379e+001	-3.179000e-001	1.938892e+001
380243000	-3.060521e-001	1.708581e+001	-4.906400e+001	-7.062607e+001	-4.918272e+001	-7.038862e+001	-3.080250e-001	1.683798e+001
390241500	-2.636732e-001	1.448429e+001	-4.948998e+001	-7.494321e+001	-4.944019e+001	-7.271323e+001	-2.560234e-001	1.405836e+001
400240000	-2.458188e-001	1.214695e+001	-4.897136e+001	-7.765448e+001	-4.872390e+001	-7.617566e+001	-2.387435e-001	1.173069e+001
410238500	-2.778713e-001	9.871862e+000	-4.923283e+001	-7.519453e+001	-4.914828e+001	-7.668286e+001	-3.012802e-001	9.593386e+000
420237000	-2.714161e-001	7.881461e+000	-4.926578e+001	-8.139446e+001	-4.923898e+001	-8.109112e+001	-2.980457e-001	7.426579e+000
430235500	-2.613401e-001	5.803006e+000	-4.974123e+001	-8.035963e+001	-4.931319e+001	-8.011930e+001	-2.556008e-001	5.409513e+000
440234000	-2.454450e-001	3.658250e+000	-5.002078e+001	-8.077694e+001	-4.921795e+001	-8.353778e+001	-2.439251e-001	3.558722e+000
450232500	-2.404370e-001	1.848782e+000	-4.948779e+001	-8.581388e+001	-5.011997e+001	-8.287892e+001	-2.188373e-001	1.475321e+000
460231000	-2.286378e-001	-2.209931e-001	-4.946510e+001	-8.829318e+001	-4.939674e+001	-9.114463e+001	-2.227023e-001	-6.928916e-001
470229500	-2.123234e-001	-2.373941e+000	-4.998686e+001	-8.436849e+001	-5.024940e+001	-9.076023e+001	-2.344162e-001	-2.737659e+000
480228000	-2.169525e-001	-4.162516e+000	-5.009817e+001	-9.282798e+001	-5.043182e+001	-9.360017e+001	-2.316323e-001	-4.504082e+000
490226500	-2.015331e-001	-5.992408e+000	-5.071042e+001	-9.226928e+001	-4.949812e+001	-9.645036e+001	-2.290256e-001	-6.311604e+000
500225000	-2.109891e-001	-8.005913e+000	-5.059666e+001	-9.337777e+001	-4.995846e+001	-9.537473e+001	-2.000028e-001	-8.346676e+000
510223500	-2.096793e-001	-9.979047e+000	-5.008183e+001	-9.498075e+001	-5.080861e+001	-9.611409e+001	-2.034987e-001	-1.049921e+001
520222000	-2.193353e-001	-1.190701e+001	-5.111648e+001	-9.715069e+001	-5.148181e+001	-1.007005e+002	-2.672476e-001	-1.181956e+001
530220500	-2.718419e-001	-1.340660e+001	-5.110001e+001	-1.014637e+002	-5.128872e+001	-9.939787e+001	-3.424926e-001	-1.352538e+001
540219000	-3.086924e-001	-1.519504e+001	-5.138400e+001	-1.044229e+002	-5.049601e+001	-1.000072e+002	-3.601094e-001	-1.547383e+001
550217500	-2.362083e-001	-1.701453e+001	-5.124694e+001	-1.051722e+002	-5.032607e+001	-1.021513e+002	-2.442952e-001	-1.734287e+001
560216000	-2.106730e-001	-1.845524e+001	-5.167320e+001	-1.036042e+002	-5.134915e+001	-1.072574e+002	-1.854496e-001	-1.875093e+001
570214500	-2.004907e-001	-2.001923e+001	-5.189822e+001	-1.047964e+002	-5.171515e+001	-1.088698e+002	-1.654133e-001	-2.024336e+001
580213000	-1.861763e-001	-2.161155e+001	-5.238269e+001	-1.052703e+002	-5.263517e+001	-1.089386e+002	-1.624764e-001	-2.201142e+001
590211500	-1.789526e-001	-2.342973e+001	-5.340655e+001	-1.109669e+002	-5.180746e+001	-1.067614e+002	-1.603850e-001	-2.379232e+001
600210000	-1.581424e-001	-2.501196e+001	-5.199057e+001	-1.116448e+002	-5.341228e+001	-1.144337e+002	-1.573150e-001	-2.531697e+001
610208500	-1.706154e-001	-2.654410e+001	-5.349723e+001	-1.161202e+002	-5.262853e+001	-1.104289e+002	-1.699847e-001	-2.670922e+001
620207000	-1.708104e-001	-2.818293e+001	-5.360883e+001	-1.145435e+002	-5.359815e+001	-1.140799e+002	-1.573963e-001	-2.841061e+001
630205500	-1.489679e-001	-2.993928e+001	-5.419913e+001	-1.137953e+002	-5.374589e+001	-1.092500e+002	-1.513091e-001	-3.026162e+001
640204000	-1.580973e-001	-3.129843e+001	-5.456513e+001	-1.143653e+002	-5.516209e+001	-1.180899e+002	-1.453029e-001	-3.180995e+001
650202500	-1.829223e-001	-3.229045e+001	-5.469216e+001	-1.129448e+002	-5.480285e+001	-1.199533e+002	-1.411825e-001	-3.298044e+001
660201000	-1.937477e-001	-3.372577e+001	-5.628722e+001	-1.102980e+002	-5.699729e+001	-1.194996e+002	-1.755272e-001	-3.448165e+001
670199500	-1.770301e-001	-3.577670e+001	-5.619498e+001	-1.191893e+002	-5.571612e+001	-1.233074e+002	-1.739614e-001	-3.621270e+001
680198000	-1.712662e-001	-3.759872e+001	-5.592428e+001	-1.212710e+002	-5.737442e+001	-1.165025e+002	-1.394045e-001	-3.806012e+001
690196500	-1.589110e-001	-3.879617e+001	-5.756433e+001	-1.166905e+002	-5.798950e+001	-1.250246e+002	-1.563587e-001	-3.938513e+001
700195000	-1.729790e-001	-4.034235e+001	-5.685053e+001	-1.092783e+002	-5.808557e+001	-1.176362e+002	-1.427262e-001	-4.077103e+001
710193500	-1.585347e-001	-4.206146e+001	-6.001742e+001	-1.119537e+002	-5.965875e+001	-1.300284e+002	-1.587699e-001	-4.225378e+001
720192000	-1.710644e-001	-4.345639e+001	-6.323778e+001	-1.294909e+002	-5.890076e+001	-1.346280e+002	-1.293605e-001	-4.381683e+001
730190500	-1.728380e-001	-4.550660e+001	-6.194347e+001	-1.041822e+002	-6.218006e+001	-1.177730e+002	-1.806301e-001	-4.554673e+001
740189000	-1.593792e-001	-4.731955e+001	-6.274567e+001	-1.334281e+002	-6.681679e+001	-1.054512e+002	-2.155982e-001	-4.742963e+001
750187500	-1.563893e-001	-4.854149e+001	-6.324454e+001	-1.108918e+002	-6.316228e+001	-1.152782e+002	-2.250372e-001	-4.896243e+001
760186000	-1.442583e-001	-4.963585e+001	-6.722032e+001	-1.109559e+002	-7.584720e+001	-1.087262e+002	-1.664083e-001	-5.011055e+001
770184500	-1.888501e-001	-5.046055e+001	-6.873778e+001	-6.353924e+001	-7.097069e+001	-9.221704e+001	-1.331044e-001	-5.090858e+001
780183000	-1.961501e-001	-5.169120e+001	-7.068458e+001	-5.498361e+001	-7.313591e+001	-5.589259e+001	-1.341173e-001	-5.226453e+001
790181500	-2.158921e-001	-5.328190e+001	-6.385686e+001	-1.942306e+001	-6.096979e+001	-9.727217e-001	-1.640043e-001	-5.384767e+001
800180000	-2.056256e-001	-5.500578e+001	-6.058247e+001	9.307276e-001	-6.107783e+001	4.894557e+000	-1.474561e-001	-5.540906e+001
810178500	-1.567039e-001	-5.634171e+001	-5.776869e+001	5.599580e+000	-5.911497e+001	2.485211e+001	-1.421631e-001	-5.671458e+001
820177000	-1.571415e-001	-5.782951e+001	-5.712970e+001	2.132097e+001	-5.668052e+001	1.777439e+001	-1.596497e-001	-5.807071e+001
830175500	-1.696706e-001	-5.931799e+001	-5.353623e+001	1.307384e+001	-5.438372e+001	2.031085e+001	-1.673837e-001	-5.965555e+001
840174000	-1.736480e-001	-6.088212e+001	-5.263236e+001	1.783410e+001	-5.188342e+001	1.497271e+001	-1.688698e-001	-6.113441e+001
850172500	-1.608350e-001	-6.222958e+001	-5.048336e+001	1.552742e+001	-5.005124e+001	1.563653e+001	-1.717405e-001	-6.259420e+001
860171000	-2.579802e-001	-6.400022e+001	-4.984758e+001	1.214398e+001	-4.905769e+001	1.064709e+001	-3.091350e-001	-6.406205e+001
870169500	-3.002473e-001	-6.573365e+001	-4.789273e+001	1.237112e+001	-4.730824e+001	1.052830e+001	-3.595352e-001	-6.598903e+001
880168000	-2.544715e-001	-6.704463e+001	-4.641695e+001	9.011449e+000	-4.571331e+001	9.497884e+000	-3.229468e-001	-6.766071e+001
890166500	-1.829670e-001	-6.804404e+001	-4.372742e+001	7.589861e+000	-4.388504e+001	9.551856e+000	-2.112766e-001	-6.873153e+001
900165000	-2.057639e-001	-6.933359e+001	-4.247698e+001	5.379982e+000	-4.226798e+001	7.724436e+000	-2.115942e-001	-6.983932e+001
910163500	-2.234492e-001	-7.104672e+001	-4.080076e+001	3.830489e+000	-4.082437e+001	4.210594e+000	-2.230377e-001	-7.136550e+001
920162000	-2.221364e-001	-7.270330e+001	-3.903348e+001	1.534738e+000	-3.921595e+001	2.509138e+000	-2.284603e-001	-7.300741e+001
930160500	-2.258293e-001	-7.424003e+001	-3.732001e+001	6.708394e-001	-3.732622e+001	-7.474512e-001	-2.228105e-001	-7.470691e+001
940159000	-2.393249e-001	-7.580662e+001	-3.579727e+001	-4.163822e+000	-3.568524e+001	-2.989117e+000	-2.394572e-001	-7.606582e+001
950157500	-2.794406e-001	-7.761317e+001	-3.401773e+001	-8.513082e+000	-3.374308e+001	-6.680059e+000	-2.759668e-001	-7.795723e+001
960156000	-3.255692e-001	-7.944965e+001	-3.194491e+001	-1.163308e+001	-3.160980e+001	-1.056660e+001	-3.006474e-001	-7.999454e+001
970154500	-3.470298e-001	-8.134092e+001	-2.957720e+001	-1.504374e+001	-2.945195e+001	-1.483380e+001	-3.412930e-001	-8.201382e+001
980153000	-4.549688e-001	-8.335834e+001	-2.707940e+001	-1.918523e+001	-2.714358e+001	-1.907847e+001	-4.140209e-001	-8.411969e+001
990151500	-7.026229e-001	-8.588463e+001	-2.440573e+001	-2.617702e+001	-2.455658e+001	-2.483512e+001	-5.917498e-001	-8.688644e+001
1000150000	-9.321624e-001	-8.880368e+001	-2.133875e+001	-3.661164e+001	-2.161107e+001	-3.419529e+001	-8.194240e-001	-8.984665e+001
1010148500	-1.307774e+000	-9.150995e+001	-1.802449e+001	-5.121026e+001	-1.820790e+001	-4.947275e+001	-1.318085e+000	-9.249351e+001
1020147000	-2.060123e+000	-9.172139e+001	-1.474868e+001	-7.370365e+001	-1.476428e+001	-7.383461e+001	-2.170750e+000	-9.257065e+001
1030145500	-2.675212e+000	-8.651279e+001	-1.268235e+001	-1.048521e+002	-1.268722e+001	-1.047505e+002	-2.826501e+000	-8.664804e+001
1040144000	-2.136415e+000	-8.228071e+001	-1.248527e+001	-1.346925e+002	-1.251210e+001	-1.343901e+002	-2.237018e+000	-8.190009e+001
1050142500	-1.540458e+000	-8.350309e+001	-1.304818e+001	-1.565031e+002	-1.306436e+001	-1.561508e+002	-1.582046e+000	-8.319624e+001
1060141000	-1.293078e+000	-8.649214e+001	-1.336667e+001	-1.724913e+002	-1.337532e+001	-1.723933e+002	-1.304933e+000	-8.609065e+001
1070139500	-1.390662e+000	-8.993681e+001	-1.308296e+001	1.735106e+002	-1.337751e+001	1.723210e+002	-1.345608e+000	-8.925771e+001
1080138000	-1.805706e+000	-9.305230e+001	-1.228379e+001	1.574944e+002	-1.278449e+001	1.550828e+002	-1.675505e+000	-9.244559e+001
1090136500	-2.648550e+000	-9.355362e+001	-1.143243e+001	1.354522e+002	-1.183336e+001	1.332780e+002	-2.422296e+000	-9.320396e+001
1100135000	-3.336167e+000	-8.650577e+001	-1.148552e+001	1.060100e+002	-1.159987e+001	1.049896e+002	-3.050280e+000	-8.711467e+001
1110133500	-2.624357e+000	-7.913114e+001	-1.314269e+001	7.623229e+001	-1.309497e+001	7.644335e+001	-2.345754e+000	-8.061257e+001
1120132000	-1.693261e+000	-7.964501e+001	-1.577541e+001	5.453779e+001	-1.568232e+001	5.474682e+001	-1.454995e+000	-8.116996e+001
1130130500	-1.098211e+000	-8.273218e+001	-1.847466e+001	4.011402e+001	-1.840643e+001	4.037514e+001	-9.448092e-001	-8.398846e+001
1140129000	-7.214015e-001	-8.545241e+001	-2.088743e+001	3.039814e+001	-2.085622e+001	3.054544e+001	-6.517752e-001	-8.672109e+001
1150127500	-5.268769e-001	-8.774341e+001	-2.301235e+001	2.349416e+001	-2.297399e+001	2.374967e+001	-5.056676e-001	-8.892433e+001
1160126000	-4.420163e-001	-9.007171e+001	-2.479770e+001	1.823681e+001	-2.478491e+001	1.843537e+001	-4.329146e-001	-9.112906e+001
1170124500	-3.819747e-001	-9.228547e+001	-2.637318e+001	1.339980e+001	-2.642626e+001	1.328858e+001	-3.794912e-001	-9.312943e+001
1180123000	-3.304463e-001	-9.408039e+001	-2.784383e+001	9.851253e+000	-2.786606e+001	9.702918e+000	-3.263442e-001	-9.501248e+001
1190121500	-2.872874e-001	-9.546394e+001	-2.917956e+001	6.996873e+000	-2.920048e+001	7.199824e+000	-2.806804e-001	-9.644815e+001
1200120000	-2.806368e-001	-9.728799e+001	-3.036457e+001	3.896480e+000	-3.034956e+001	5.150984e+000	-2.944571e-001	-9.824895e+001
1210118500	-2.719674e-001	-9.893968e+001	-3.136887e+001	7.378699e-001	-3.150801e+001	3.958295e+000	-2.781942e-001	-9.988654e+001
1220117000	-2.447700e-001	-1.003752e+002	-3.234924e+001	-1.726710e+000	-3.239649e+001	3.150341e-001	-2.618308e-001	-1.012621e+002
1230115500	-2.214661e-001	-1.016640e+002	-3.332439e+001	-3.178637e+000	-3.325556e+001	-2.395977e+000	-2.222164e-001	-1.025616e+002
1240114000	-2.818074e-001	-1.029031e+002	-3.412732e+001	-3.473342e+000	-3.404170e+001	-6.072836e+000	-2.694875e-001	-1.040649e+002
1250112500	-2.919991e-001	-1.044053e+002	-3.498182e+001	-4.672207e+000	-3.486001e+001	-7.535769e+000	-2.690546e-001	-1.056467e+002
1260111000	-2.556370e-001	-1.059018e+002	-3.560978e+001	-6.317447e+000	-3.544553e+001	-9.847446e+000	-2.711718e-001	-1.072054e+002
1270109500	-2.170294e-001	-1.072960e+002	-3.641467e+001	-9.482512e+000	-3.641986e+001	-1.165206e+001	-2.341902e-001	-1.083164e+002
1280108000	-2.485450e-001	-1.086024e+002	-3.684453e+001	-1.261516e+001	-3.680545e+001	-1.206862e+001	-2.370207e-001	-1.094059e+002
1290106500	-2.408398e-001	-1.100244e+002	-3.734751e+001	-1.481403e+001	-3.748750e+001	-1.434298e+001	-2.543217e-001	-1.108705e+002
1300105000	-2.249008e-001	-1.114663e+002	-3.792821e+001	-1.597046e+001	-3.797264e+001	-1.452614e+001	-2.408024e-001	-1.122592e+002
1310103500	-2.216645e-001	-1.125016e+002	-3.836103e+001	-1.823420e+001	-3.836330e+001	-1.739198e+001	-2.223527e-001	-1.133949e+002
1320102000	-2.239095e-001	-1.136297e+002	-3.892309e+001	-2.003443e+001	-3.899620e+001	-1.947763e+001	-2.088433e-001	-1.144039e+002
1330100500	-2.377980e-001	-1.152227e+002	-3.959998e+001	-2.061748e+001	-3.915679e+001	-2.086973e+001	-2.344676e-001	-1.158582e+002
1340099000	-2.288692e-001	-1.164560e+002	-4.000331e+001	-2.091365e+001	-3.969512e+001	-2.333452e+001	-2.353857e-001	-1.172745e+002
1350097500	-2.166245e-001	-1.174006e+002	-4.045735e+001	-2.387232e+001	-4.012711e+001	-2.478822e+001	-1.995604e-001	-1.184755e+002
1360096000	-2.209209e-001	-1.184684e+002	-4.059478e+001	-2.478978e+001	-4.040631e+001	-2.546481e+001	-2.125551e-001	-1.194381e+002
1370094500	-2.411128e-001	-1.197683e+002	-4.084556e+001	-2.692834e+001	-4.089926e+001	-2.714827e+001	-1.501139e-001	-1.209722e+002
1380093000	-1.864687e-001	-1.211718e+002	-4.115852e+001	-2.867946e+001	-4.105479e+001	-2.805427e+001	-9.569441e-002	-1.223745e+002
1390091500	-1.453756e-001	-1.223977e+002	-4.142165e+001	-2.975562e+001	-4.179036e+001	-2.967584e+001	-7.715190e-002	-1.234652e+002
1400090000	-1.837201e-001	-1.233791e+002	-4.180680e+001	-2.998461e+001	-4.168436e+001	-3.031634e+001	-1.723841e-001	-1.243427e+002
1410088500	-2.225017e-001	-1.248168e+002	-4.195915e+001	-3.283069e+001	-4.197526e+001	-3.327103e+001	-2.352139e-001	-1.256746e+002
1420087000	-2.193798e-001	-1.261931e+002	-4.208340e+001	-3.519087e+001	-4.227254e+001	-3.298692e+001	-2.374860e-001	-1.269699e+002
1430085500	-2.005356e-001	-1.273699e+002	-4.215660e+001	-3.568950e+001	-4.269982e+001	-3.513844e+001	-2.266091e-001	-1.281513e+002
1440084000	-1.926580e-001	-1.283331e+002	-4.247903e+001	-3.848895e+001	-4.282536e+001	-3.591693e+001	-2.170795e-001	-1.291949e+002
1450082500	-2.287248e-001	-1.295538e+002	-4.303868e+001	-3.811633e+001	-4.308423e+001	-3.908237e+001	-2.478208e-001	-1.307023e+002
1460081000	-2.428427e-001	-1.310743e+002	-4.330158e+001	-3.447156e+001	-4.284879e+001	-4.071893e+001	-2.584940e-001	-1.322729e+002
1470079500	-2.100804e-001	-1.322142e+002	-4.301771e+001	-3.888024e+001	-4.352804e+001	-4.401373e+001	-2.581735e-001	-1.333596e+002
1480078000	-1.854227e-001	-1.330360e+002	-4.362324e+001	-4.088326e+001	-4.335664e+001	-4.055726e+001	-2.396916e-001	-1.341869e+002
1490076500	-2.010897e-001	-1.341559e+002	-4.349710e+001	-4.585903e+001	-4.333451e+001	-4.443251e+001	-2.355277e-001	-1.352919e+002
1500075000	-1.388127e-001	-1.357669e+002	-4.336569e+001	-4.474704e+001	-4.353354e+001	-4.417115e+001	-2.543508e-001	-1.368417e+002
